T46B4 000:007.787   SEGGER J-Link V8.16 Log File
T46B4 000:007.921   DLL Compiled: Feb 26 2025 12:07:26
T46B4 000:007.928   Logging started @ 2026-05-28 10:18
T46B4 000:007.934   Process: C:\Keil_v5\UV4\UV4.exe
T46B4 000:007.947 - 7.940ms 
T46B4 000:007.957 JLINK_SetWarnOutHandler(...)
T46B4 000:007.963 - 0.007ms 
T46B4 000:007.973 JLINK_OpenEx(...)
T46B4 000:011.417   Firmware: J-Link EDU Mini V1 compiled Dec 10 2025 15:50:08
T46B4 000:012.371   Firmware: J-Link EDU Mini V1 compiled Dec 10 2025 15:50:08
T46B4 000:041.123   Hardware: V1.00
T46B4 000:041.171   S/N: 801015650
T46B4 000:041.199   OEM: SEGGER
T46B4 000:041.228   Feature(s): FlashBP, GDB
T46B4 000:043.400   Bootloader: 2016 Nov 30
T46B4 000:044.138   USB speed mode: Full speed (12 MBit/s)
T46B4 000:044.934   TELNET listener socket opened on port 19021
T46B4 000:045.297   WEBSRV WEBSRV_Init(): Starting webserver thread(s)
T46B4 000:045.481   WEBSRV Webserver running on local port 19080
T46B4 000:045.656   Looking for J-Link GUI Server exe at: c:\Keil_v5\ARM\Segger\JLinkGUIServer.exe
T46B4 000:045.884   Looking for J-Link GUI Server exe at: \JLinkGUIServer.exe
T46B4 000:351.206   Failed to connect to J-Link GUI Server.
T46B4 000:351.319 - 343.328ms returns "O.K."
T46B4 000:351.395 JLINK_GetEmuCaps()
T46B4 000:351.434 - 0.033ms returns 0xB8EA5A33
T46B4 000:351.490 JLINK_TIF_GetAvailable(...)
T46B4 000:351.887 - 0.402ms 
T46B4 000:351.918 JLINK_SetErrorOutHandler(...)
T46B4 000:351.926 - 0.008ms 
T46B4 000:351.953 JLINK_ExecCommand("ProjectFile = "C:\Users\s4222107\OneDrive - RMIT University\2026\Semester 1\Embedded System Design and Implementation (EEET2096)\project\EEET2096-Home-Management-System\JLinkSettings.ini"", ...). 
T46B4 000:371.771 - 19.821ms returns 0x00
T46B4 000:371.821 JLINK_ExecCommand("Device = STM32F439IIHx", ...). 
T46B4 000:373.271   Flash bank @ 0x90000000: SFL: Parsing sectorization info from ELF file
T46B4 000:373.291     FlashDevice.SectorInfo[0]: .SectorSize = 0x00010000, .SectorStartAddr = 0x00000000
T46B4 000:377.496   Device "STM32F439II" selected.
T46B4 000:379.551 - 7.722ms returns 0x00
T46B4 000:379.577 JLINK_ExecCommand("DisableConnectionTimeout", ...). 
T46B4 000:379.696   ERROR: Unknown command
T46B4 000:379.720 - 0.034ms returns 0x01
T46B4 000:379.728 JLINK_GetHardwareVersion()
T46B4 000:379.734 - 0.006ms returns 10000
T46B4 000:379.740 JLINK_GetDLLVersion()
T46B4 000:379.746 - 0.005ms returns 81600
T46B4 000:379.752 JLINK_GetOEMString(...)
T46B4 000:379.758 JLINK_GetFirmwareString(...)
T46B4 000:379.764 - 0.005ms 
T46B4 000:379.791 JLINK_GetDLLVersion()
T46B4 000:379.796 - 0.005ms returns 81600
T46B4 000:379.803 JLINK_GetCompileDateTime()
T46B4 000:379.808 - 0.005ms 
T46B4 000:379.817 JLINK_GetFirmwareString(...)
T46B4 000:379.823 - 0.005ms 
T46B4 000:379.831 JLINK_GetHardwareVersion()
T46B4 000:379.836 - 0.005ms returns 10000
T46B4 000:379.845 JLINK_GetSN()
T46B4 000:379.851 - 0.005ms returns 801015650
T46B4 000:379.859 JLINK_GetOEMString(...)
T46B4 000:379.875 JLINK_TIF_Select(JLINKARM_TIF_JTAG)
T46B4 000:380.851 - 0.977ms returns 0x00
T46B4 000:380.869 JLINK_HasError()
T46B4 000:380.883 JLINK_SetSpeed(5000)
T46B4 000:381.076 - 0.194ms 
T46B4 000:381.085 JLINK_GetIdData(pIdData)
T46B4 000:381.330   InitTarget() start
T46B4 000:381.343    J-Link Script File: Executing InitTarget()
T46B4 000:381.533   JTAG selected. Identifying JTAG Chain...
T46B4 000:382.774   TotalIRLen = 9, IRPrint = 0x0011
T46B4 000:383.188   JTAG chain detection found 2 devices:
T46B4 000:383.200    #0 Id: 0x4BA00477, IRLen: 04, CoreSight JTAG-DP
T46B4 000:383.211    #1 Id: 0x06419041, IRLen: 05, STM32 Boundary Scan
T46B4 000:383.221   JTAG Chain Identified. Connecting to DAP TAP...
T46B4 000:383.232   Successfully connected to selected DAP TAP.
T46B4 000:385.089   DAP initialized successfully.
T46B4 000:391.168   InitTarget() end - Took 9.82ms
T46B4 000:392.296   TotalIRLen = 9, IRPrint = 0x0011
T46B4 000:392.716   JTAG chain detection found 2 devices:
T46B4 000:392.728    #0 Id: 0x4BA00477, IRLen: 04, CoreSight JTAG-DP
T46B4 000:392.777    #1 Id: 0x06419041, IRLen: 05, STM32 Boundary Scan
T46B4 000:394.180   DPv0 detected
T46B4 000:394.197   Scanning AP map to find all available APs
T46B4 000:394.850   AP[1]: Stopped AP scan as end of AP map has been reached
T46B4 000:394.864   AP[0]: AHB-AP (IDR: 0x24770011, ADDR: 0x00000000)
T46B4 000:394.874   Iterating through AP map to find AHB-AP to use
T46B4 000:395.865   AP[0]: Core found
T46B4 000:395.877   AP[0]: AHB-AP ROM base: 0xE00FF000
T46B4 000:396.330   CPUID register: 0x410FC241. Implementer code: 0x41 (ARM)
T46B4 000:396.350   Found Cortex-M4 r0p1, Little endian.
T46B4 000:396.694   -- Max. mem block: 0x00002B68
T46B4 000:398.165   CPU_ReadMem(4 bytes @ 0xE000EDF0)
T46B4 000:398.587   CPU_ReadMem(4 bytes @ 0xE0002000)
T46B4 000:398.987   FPUnit: 6 code (BP) slots and 2 literal slots
T46B4 000:398.998   CPU_ReadMem(4 bytes @ 0xE000EDFC)
T46B4 000:399.437   CPU_WriteMem(4 bytes @ 0xE000EDFC)
T46B4 000:399.937   CPU_ReadMem(4 bytes @ 0xE0001000)
T46B4 000:400.362   CPU_WriteMem(4 bytes @ 0xE0001000)
T46B4 000:400.760   CPU_ReadMem(4 bytes @ 0xE000ED88)
T46B4 000:401.158   CPU_WriteMem(4 bytes @ 0xE000ED88)
T46B4 000:401.556   CPU_ReadMem(4 bytes @ 0xE000ED88)
T46B4 000:401.959   CPU_WriteMem(4 bytes @ 0xE000ED88)
T46B4 000:402.341   CoreSight components:
T46B4 000:402.358   ROMTbl[0] @ E00FF000
T46B4 000:402.371   CPU_ReadMem(64 bytes @ 0xE00FF000)
T46B4 000:403.168   CPU_ReadMem(32 bytes @ 0xE000EFE0)
T46B4 000:403.829   [0][0]: E000E000 CID B105E00D PID 000BB00C SCS-M7
T46B4 000:403.844   CPU_ReadMem(32 bytes @ 0xE0001FE0)
T46B4 000:404.410   [0][1]: E0001000 CID B105E00D PID 003BB002 DWT
T46B4 000:404.443   CPU_ReadMem(32 bytes @ 0xE0002FE0)
T46B4 000:405.199   [0][2]: E0002000 CID B105E00D PID 002BB003 FPB
T46B4 000:405.253   CPU_ReadMem(32 bytes @ 0xE0000FE0)
T46B4 000:405.962   [0][3]: E0000000 CID B105E00D PID 003BB001 ITM
T46B4 000:406.005   CPU_ReadMem(32 bytes @ 0xE0040FE0)
T46B4 000:406.711   [0][4]: E0040000 CID B105900D PID 000BB9A1 TPIU
T46B4 000:406.759   CPU_ReadMem(32 bytes @ 0xE0041FE0)
T46B4 000:407.421   [0][5]: E0041000 CID B105900D PID 000BB925 ETM
T46B4 000:407.453   pIdData->ScanLen=9
T46B4 000:407.463   pIdData->NumDevices=2
T46B4 000:407.471   pIdData->aId[0]=0x4BA00477
T46B4 000:407.478   pIdData->aIrRead[0]=0
T46B4 000:407.486   pIdData->aScanLen[0]=0
T46B4 000:407.494   pIdData->aScanRead[0]=0
T46B4 000:407.502 - 26.417ms 
T46B4 000:407.514 JLINK_JTAG_GetDeviceID(DeviceIndex = 0)
T46B4 000:407.520 - 0.006ms returns 1268778103
T46B4 000:407.526 JLINK_JTAG_GetDeviceInfo(DeviceIndex = 0)
T46B4 000:407.532 - 0.005ms returns 0
T46B4 000:407.538 JLINK_JTAG_GetDeviceID(DeviceIndex = 1)
T46B4 000:407.544 - 0.005ms returns 104960065
T46B4 000:407.550 JLINK_JTAG_GetDeviceInfo(DeviceIndex = 1)
T46B4 000:407.555 - 0.005ms returns 0
T46B4 000:407.562 JLINK_GetDLLVersion()
T46B4 000:407.568 - 0.005ms returns 81600
T46B4 000:407.577 JLINK_CORE_GetFound()
T46B4 000:407.585 - 0.007ms returns 0xE0000FF
T46B4 000:407.592 JLINK_GetDebugInfo(0x100 = JLINKARM_ROM_TABLE_ADDR_INDEX)
T46B4 000:407.603   Value=0xE00FF000
T46B4 000:407.611 - 0.020ms returns 0
T46B4 000:407.623 JLINK_GetDebugInfo(0x100 = JLINKARM_ROM_TABLE_ADDR_INDEX)
T46B4 000:407.630   Value=0xE00FF000
T46B4 000:407.638 - 0.014ms returns 0
T46B4 000:407.646 JLINK_GetDebugInfo(0x101 = JLINKARM_DEBUG_INFO_ETM_ADDR_INDEX)
T46B4 000:407.652   Value=0xE0041000
T46B4 000:407.660 - 0.014ms returns 0
T46B4 000:407.667 JLINK_ReadMemEx(0xE0041FD0, 0x20 Bytes, Flags = 0x02000004)
T46B4 000:407.687   CPU_ReadMem(32 bytes @ 0xE0041FD0)
T46B4 000:408.425   Data:  04 00 00 00 00 00 00 00 00 00 00 00 00 00 00 00 ...
T46B4 000:408.436 - 0.769ms returns 32 (0x20)
T46B4 000:408.445 JLINK_GetDebugInfo(0x102 = JLINKARM_DEBUG_INFO_MTB_ADDR_INDEX)
T46B4 000:408.451   Value=0x00000000
T46B4 000:408.459 - 0.013ms returns 0
T46B4 000:408.465 JLINK_GetDebugInfo(0x103 = JLINKARM_DEBUG_INFO_TPIU_ADDR_INDEX)
T46B4 000:408.471   Value=0xE0040000
T46B4 000:408.481 - 0.016ms returns 0
T46B4 000:408.488 JLINK_GetDebugInfo(0x104 = JLINKARM_DEBUG_INFO_ITM_ADDR_INDEX)
T46B4 000:408.493   Value=0xE0000000
T46B4 000:408.501 - 0.013ms returns 0
T46B4 000:408.507 JLINK_GetDebugInfo(0x105 = JLINKARM_DEBUG_INFO_DWT_ADDR_INDEX)
T46B4 000:408.513   Value=0xE0001000
T46B4 000:408.521 - 0.013ms returns 0
T46B4 000:408.527 JLINK_GetDebugInfo(0x106 = JLINKARM_DEBUG_INFO_FPB_ADDR_INDEX)
T46B4 000:408.533   Value=0xE0002000
T46B4 000:408.541 - 0.013ms returns 0
T46B4 000:408.549 JLINK_GetDebugInfo(0x107 = JLINKARM_DEBUG_INFO_NVIC_ADDR_INDEX)
T46B4 000:408.555   Value=0xE000E000
T46B4 000:408.563 - 0.014ms returns 0
T46B4 000:408.571 JLINK_GetDebugInfo(0x10C = JLINKARM_DEBUG_INFO_DBG_ADDR_INDEX)
T46B4 000:408.577   Value=0xE000EDF0
T46B4 000:408.585 - 0.014ms returns 0
T46B4 000:408.591 JLINK_GetDebugInfo(0x01 = Unknown)
T46B4 000:408.597   Value=0x00000001
T46B4 000:408.606 - 0.014ms returns 0
T46B4 000:408.612 JLINK_ReadMemU32(0xE000ED00, 0x1 Items)
T46B4 000:408.619   CPU_ReadMem(4 bytes @ 0xE000ED00)
T46B4 000:409.088   Data:  41 C2 0F 41
T46B4 000:409.097   Debug reg: CPUID
T46B4 000:409.105 - 0.493ms returns 1 (0x1)
T46B4 000:409.114 JLINK_GetDebugInfo(0x10F = JLINKARM_DEBUG_INFO_HAS_CORTEX_M_SECURITY_EXT_INDEX)
T46B4 000:409.120   Value=0x00000000
T46B4 000:409.127 - 0.013ms returns 0
T46B4 000:409.134 JLINK_HasError()
T46B4 000:409.141 JLINK_SetResetType(JLINKARM_CM3_RESET_TYPE_NORMAL)
T46B4 000:409.146 - 0.005ms returns JLINKARM_CM3_RESET_TYPE_NORMAL
T46B4 000:409.153 JLINK_Reset()
T46B4 000:409.161   JLINK_GetResetTypeDesc
T46B4 000:409.167   - 0.006ms 
T46B4 000:409.182   Reset type: NORMAL (https://wiki.segger.com/J-Link_Reset_Strategies)
T46B4 000:409.191   CPU is running
T46B4 000:409.202   CPU_WriteMem(4 bytes @ 0xE000EDF0)
T46B4 000:409.569   CPU is running
T46B4 000:409.580   CPU_WriteMem(4 bytes @ 0xE000EDFC)
T46B4 000:409.931   Reset: Halt core after reset via DEMCR.VC_CORERESET.
T46B4 000:409.954   Reset: Reset device via AIRCR.SYSRESETREQ.
T46B4 000:409.962   CPU is running
T46B4 000:409.970   CPU_WriteMem(4 bytes @ 0xE000ED0C)
T46B4 000:462.221   CPU_ReadMem(4 bytes @ 0xE000EDF0)
T46B4 000:462.916   CPU_ReadMem(4 bytes @ 0xE000EDF0)
T46B4 000:466.628   CPU_WriteMem(4 bytes @ 0xE000EDFC)
T46B4 000:473.213   CPU_ReadMem(4 bytes @ 0xE000EDF0)
T46B4 000:476.750   CPU_WriteMem(4 bytes @ 0xE000EDFC)
T46B4 000:477.357   CPU_WriteMem(4 bytes @ 0xE0001028)
T46B4 000:477.918   CPU_WriteMem(4 bytes @ 0xE0001038)
T46B4 000:478.478   CPU_WriteMem(4 bytes @ 0xE0001048)
T46B4 000:479.043   CPU_WriteMem(4 bytes @ 0xE0001058)
T46B4 000:479.612   CPU_WriteMem(4 bytes @ 0xE0002000)
T46B4 000:480.176   CPU_ReadMem(4 bytes @ 0xE000EDFC)
T46B4 000:480.790   CPU_ReadMem(4 bytes @ 0xE0001000)
T46B4 000:481.422 - 72.267ms 
T46B4 000:481.502 JLINK_HasError()
T46B4 000:481.697 JLINK_ReadReg(R15 (PC))
T46B4 000:481.740 - 0.079ms returns 0x08001028
T46B4 000:481.774 JLINK_ReadReg(XPSR)
T46B4 000:481.805 - 0.030ms returns 0x01000000
T46B4 000:481.839 JLINK_Halt()
T46B4 000:481.869 - 0.029ms returns 0x00
T46B4 000:481.903 JLINK_ReadMemU32(0xE000EDF0, 0x1 Items)
T46B4 000:481.944   CPU_ReadMem(4 bytes @ 0xE000EDF0)
T46B4 000:482.485   Data:  03 00 03 00
T46B4 000:482.536   Debug reg: DHCSR
T46B4 000:482.580 - 0.677ms returns 1 (0x1)
T46B4 000:482.617 JLINK_WriteU32(0xE000EDF0, 0xA05F0003)
T46B4 000:482.647   Debug reg: DHCSR
T46B4 000:483.722   CPU_WriteMem(4 bytes @ 0xE000EDF0)
T46B4 000:484.271 - 1.654ms returns 0 (0x00000000)
T46B4 000:484.311 JLINK_WriteU32(0xE000EDFC, 0x01000000)
T46B4 000:484.324   Debug reg: DEMCR
T46B4 000:484.352   CPU_WriteMem(4 bytes @ 0xE000EDFC)
T46B4 000:484.780 - 0.469ms returns 0 (0x00000000)
T46B4 000:484.813 JLINK_GetHWStatus(...)
T46B4 000:485.014 - 0.201ms returns 0
T46B4 000:485.032 JLINK_GetNumBPUnits(Type = 0xFFFFFF00)
T46B4 000:485.038 - 0.006ms returns 0x06
T46B4 000:485.044 JLINK_GetNumBPUnits(Type = 0xF0)
T46B4 000:485.049 - 0.005ms returns 0x2000
T46B4 000:485.055 JLINK_GetNumWPUnits()
T46B4 000:485.065 - 0.009ms returns 4
T46B4 000:485.076 JLINK_GetSpeed()
T46B4 000:485.081 - 0.005ms returns 4000
T46B4 000:485.093 JLINK_ReadMemU32(0xE000E004, 0x1 Items)
T46B4 000:485.102   CPU_ReadMem(4 bytes @ 0xE000E004)
T46B4 000:485.644   Data:  02 00 00 00
T46B4 000:485.653 - 0.560ms returns 1 (0x1)
T46B4 000:485.660 JLINK_ReadMemU32(0xE000E004, 0x1 Items)
T46B4 000:485.666   CPU_ReadMem(4 bytes @ 0xE000E004)
T46B4 000:486.034   Data:  02 00 00 00
T46B4 000:486.046 - 0.385ms returns 1 (0x1)
T46B4 000:486.053 JLINK_WriteMemEx(0xE0001000, 0x0000001C Bytes, Flags = 0x02000004)
T46B4 000:486.058   Data:  01 00 00 00 00 00 00 00 00 00 00 00 00 00 00 00 ...
T46B4 000:486.070   CPU_WriteMem(28 bytes @ 0xE0001000)
T46B4 000:486.725 - 0.671ms returns 0x1C
T46B4 000:486.746 JLINK_HasError()
T46B4 000:486.753 JLINK_ReadReg(R15 (PC))
T46B4 000:486.760 - 0.007ms returns 0x08001028
T46B4 000:486.766 JLINK_ReadReg(XPSR)
T46B4 000:486.772 - 0.005ms returns 0x01000000
T46B4 000:491.196 JLINK_ReadMemEx(0xE0001004, 0x4 Bytes, Flags = 0x02000000)
T46B4 000:491.217   Data:  00 00 00 00
T46B4 000:491.226   Debug reg: DWT_CYCCNT
T46B4 000:491.234 - 0.038ms returns 4 (0x4)
T46B4 000:494.698 JLINK_WriteMemEx(0x20000000, 0x00001000 Bytes, Flags = 0x02000000)
T46B4 000:494.716   Data:  50 04 01 20 A1 14 00 20 C1 01 00 20 AB 14 00 20 ...
T46B4 000:494.996   CPU_WriteMem(4096 bytes @ 0x20000000)
T46B4 000:512.461 - 17.762ms returns 0x1000
T46B4 000:512.803 JLINK_WriteMemEx(0x20001000, 0x00001000 Bytes, Flags = 0x02000000)
T46B4 000:512.817   Data:  59 1C 8D F8 21 10 40 F2 0C 02 C2 F2 01 02 26 21 ...
T46B4 000:512.833   CPU_WriteMem(4096 bytes @ 0x20001000)
T46B4 000:530.460 - 17.654ms returns 0x1000
T46B4 000:531.545 JLINK_WriteMemEx(0x20002000, 0x00000A38 Bytes, Flags = 0x02000000)
T46B4 000:531.605   Data:  02 F0 43 EA E0 73 06 E0 41 FA 02 F3 D0 40 C2 F1 ...
T46B4 000:531.684   CPU_WriteMem(2616 bytes @ 0x20002000)
T46B4 000:543.483 - 11.938ms returns 0xA38
T46B4 000:601.694 JLINK_HasError()
T46B4 000:601.730 JLINK_SetResetType(JLINKARM_CM3_RESET_TYPE_NORMAL)
T46B4 000:601.737 - 0.006ms returns JLINKARM_CM3_RESET_TYPE_NORMAL
T46B4 000:601.743 JLINK_Reset()
T46B4 000:601.755   JLINK_GetResetTypeDesc
T46B4 000:601.761   - 0.005ms 
T46B4 000:601.780   Reset type: NORMAL (https://wiki.segger.com/J-Link_Reset_Strategies)
T46B4 000:601.788   CPU_WriteMem(4 bytes @ 0xE000EDF0)
T46B4 000:602.375   CPU_WriteMem(4 bytes @ 0xE000EDFC)
T46B4 000:602.877   Reset: Halt core after reset via DEMCR.VC_CORERESET.
T46B4 000:602.951   Reset: Reset device via AIRCR.SYSRESETREQ.
T46B4 000:602.983   CPU_WriteMem(4 bytes @ 0xE000ED0C)
T46B4 000:655.577   CPU_ReadMem(4 bytes @ 0xE000EDF0)
T46B4 000:656.370   CPU_ReadMem(4 bytes @ 0xE000EDF0)
T46B4 000:657.148   CPU_WriteMem(4 bytes @ 0xE000EDFC)
T46B4 000:663.565   CPU_ReadMem(4 bytes @ 0xE000EDF0)
T46B4 000:667.411   CPU_WriteMem(4 bytes @ 0xE000EDFC)
T46B4 000:668.084   CPU_WriteMem(4 bytes @ 0xE0001028)
T46B4 000:668.619   CPU_WriteMem(4 bytes @ 0xE0001038)
T46B4 000:669.189   CPU_WriteMem(4 bytes @ 0xE0001048)
T46B4 000:669.726   CPU_WriteMem(4 bytes @ 0xE0001058)
T46B4 000:670.216   CPU_WriteMem(4 bytes @ 0xE0002000)
T46B4 000:670.702   CPU_ReadMem(4 bytes @ 0xE000EDFC)
T46B4 000:671.211   CPU_ReadMem(4 bytes @ 0xE0001000)
T46B4 000:671.721 - 69.976ms 
T46B4 000:671.875 JLINK_HasError()
T46B4 000:672.043 JLINK_ReadReg(R15 (PC))
T46B4 000:672.088 - 0.044ms returns 0x08001028
T46B4 000:672.122 JLINK_ReadReg(XPSR)
T46B4 000:672.152 - 0.030ms returns 0x01000000
T46B4 000:672.252 JLINK_HasError()
T46B4 000:672.287 JLINK_ReadReg(R0)
T46B4 000:672.318 - 0.031ms returns 0x00000000
T46B4 000:672.351 JLINK_ReadReg(R1)
T46B4 000:672.381 - 0.029ms returns 0x00000000
T46B4 000:672.412 JLINK_ReadReg(R2)
T46B4 000:672.442 - 0.029ms returns 0x00000000
T46B4 000:672.475 JLINK_ReadReg(R3)
T46B4 000:672.505 - 0.029ms returns 0x00000000
T46B4 000:672.537 JLINK_ReadReg(R4)
T46B4 000:672.567 - 0.029ms returns 0x00000000
T46B4 000:672.600 JLINK_HasError()
T46B4 000:672.774 JLINK_ReadMemU32(0xE0001004, 0x1 Items)
T46B4 000:672.816   Data:  00 00 00 00
T46B4 000:672.862   Debug reg: DWT_CYCCNT
T46B4 000:672.906 - 0.132ms returns 1 (0x1)
T46B4 000:673.116 JLINK_ReadMemEx(0x08001028, 0x3C Bytes, Flags = 0x02000000)
T46B4 000:673.164   CPU_ReadMem(128 bytes @ 0x08001000)
T46B4 000:674.548    -- Updating C cache (128 bytes @ 0x08001000)
T46B4 000:674.600    -- Read from C cache (60 bytes @ 0x08001028)
T46B4 000:674.646   Data:  06 48 80 47 06 48 00 47 FE E7 FE E7 FE E7 FE E7 ...
T46B4 000:674.690 - 1.575ms returns 60 (0x3C)
T46B4 000:674.727 JLINK_ReadMemEx(0x08001028, 0x2 Bytes, Flags = 0x02000000)
T46B4 000:674.759    -- Read from C cache (2 bytes @ 0x08001028)
T46B4 000:674.801   Data:  06 48
T46B4 000:674.846 - 0.119ms returns 2 (0x2)
T46B4 000:675.081 JLINK_ReadMemEx(0x0800102A, 0x2 Bytes, Flags = 0x02000000)
T46B4 000:675.114    -- Read from C cache (2 bytes @ 0x0800102A)
T46B4 000:675.157   Data:  80 47
T46B4 000:675.200 - 0.119ms returns 2 (0x2)
T46B4 000:675.801 JLINK_ReadMemEx(0x0800102A, 0x2 Bytes, Flags = 0x02000000)
T46B4 000:675.809    -- Read from C cache (2 bytes @ 0x0800102A)
T46B4 000:675.816   Data:  80 47
T46B4 000:675.824 - 0.022ms returns 2 (0x2)
T46B4 000:675.830 JLINK_ReadMemEx(0x0800102C, 0x3C Bytes, Flags = 0x02000000)
T46B4 000:675.836    -- Read from C cache (60 bytes @ 0x0800102C)
T46B4 000:675.844   Data:  06 48 00 47 FE E7 FE E7 FE E7 FE E7 FE E7 FE E7 ...
T46B4 000:675.852 - 0.021ms returns 60 (0x3C)
T46B4 000:675.858 JLINK_ReadMemEx(0x0800102C, 0x2 Bytes, Flags = 0x02000000)
T46B4 000:675.863    -- Read from C cache (2 bytes @ 0x0800102C)
T46B4 000:675.871   Data:  06 48
T46B4 000:675.879 - 0.021ms returns 2 (0x2)
T46B4 000:675.886 JLINK_ReadMemEx(0x0800102C, 0x3C Bytes, Flags = 0x02000000)
T46B4 000:675.892    -- Read from C cache (60 bytes @ 0x0800102C)
T46B4 000:675.900   Data:  06 48 00 47 FE E7 FE E7 FE E7 FE E7 FE E7 FE E7 ...
T46B4 000:675.908 - 0.021ms returns 60 (0x3C)
T46B4 000:675.914 JLINK_ReadMemEx(0x0800102C, 0x2 Bytes, Flags = 0x02000000)
T46B4 000:675.919    -- Read from C cache (2 bytes @ 0x0800102C)
T46B4 000:675.927   Data:  06 48
T46B4 000:675.934 - 0.020ms returns 2 (0x2)
T46B4 000:675.940 JLINK_ReadMemEx(0x0800102E, 0x2 Bytes, Flags = 0x02000000)
T46B4 000:675.946    -- Read from C cache (2 bytes @ 0x0800102E)
T46B4 000:675.953   Data:  00 47
T46B4 000:675.961 - 0.021ms returns 2 (0x2)
T46B4 000:675.968 JLINK_ReadMemEx(0x0800102E, 0x2 Bytes, Flags = 0x02000000)
T46B4 000:675.974    -- Read from C cache (2 bytes @ 0x0800102E)
T46B4 000:675.981   Data:  00 47
T46B4 000:675.989 - 0.021ms returns 2 (0x2)
T46B4 000:675.995 JLINK_ReadMemEx(0x08001030, 0x3C Bytes, Flags = 0x02000000)
T46B4 000:676.001    -- Read from C cache (60 bytes @ 0x08001030)
T46B4 000:676.009   Data:  FE E7 FE E7 FE E7 FE E7 FE E7 FE E7 FE E7 FE E7 ...
T46B4 000:676.016 - 0.021ms returns 60 (0x3C)
T46B4 000:676.022 JLINK_ReadMemEx(0x08001030, 0x2 Bytes, Flags = 0x02000000)
T46B4 000:676.028    -- Read from C cache (2 bytes @ 0x08001030)
T46B4 000:676.035   Data:  FE E7
T46B4 000:676.043 - 0.021ms returns 2 (0x2)
T46B4 000:676.050 JLINK_ReadMemEx(0x08001030, 0x3C Bytes, Flags = 0x02000000)
T46B4 000:676.056    -- Read from C cache (60 bytes @ 0x08001030)
T46B4 000:676.064   Data:  FE E7 FE E7 FE E7 FE E7 FE E7 FE E7 FE E7 FE E7 ...
T46B4 000:676.072 - 0.021ms returns 60 (0x3C)
T46B4 000:676.077 JLINK_ReadMemEx(0x08001030, 0x2 Bytes, Flags = 0x02000000)
T46B4 000:676.083    -- Read from C cache (2 bytes @ 0x08001030)
T46B4 000:676.090   Data:  FE E7
T46B4 000:676.098 - 0.021ms returns 2 (0x2)
T46B4 000:676.104 JLINK_ReadMemEx(0x08001032, 0x2 Bytes, Flags = 0x02000000)
T46B4 000:676.110    -- Read from C cache (2 bytes @ 0x08001032)
T46B4 000:676.117   Data:  FE E7
T46B4 000:676.125 - 0.020ms returns 2 (0x2)
T46B4 000:676.132 JLINK_ReadMemEx(0x08001032, 0x2 Bytes, Flags = 0x02000000)
T46B4 000:676.138    -- Read from C cache (2 bytes @ 0x08001032)
T46B4 000:676.145   Data:  FE E7
T46B4 000:676.156 - 0.023ms returns 2 (0x2)
T46B4 000:676.162 JLINK_ReadMemEx(0x08001034, 0x3C Bytes, Flags = 0x02000000)
T46B4 000:676.167    -- Read from C cache (60 bytes @ 0x08001034)
T46B4 000:676.175   Data:  FE E7 FE E7 FE E7 FE E7 FE E7 FE E7 FE E7 FE E7 ...
T46B4 000:676.183 - 0.021ms returns 60 (0x3C)
T46B4 000:676.189 JLINK_ReadMemEx(0x08001034, 0x2 Bytes, Flags = 0x02000000)
T46B4 000:676.194    -- Read from C cache (2 bytes @ 0x08001034)
T46B4 000:676.202   Data:  FE E7
T46B4 000:676.210 - 0.020ms returns 2 (0x2)
T46B4 000:676.217 JLINK_ReadMemEx(0x08001034, 0x3C Bytes, Flags = 0x02000000)
T46B4 000:676.222    -- Read from C cache (60 bytes @ 0x08001034)
T46B4 000:676.230   Data:  FE E7 FE E7 FE E7 FE E7 FE E7 FE E7 FE E7 FE E7 ...
T46B4 000:676.238 - 0.021ms returns 60 (0x3C)
T46B4 000:676.251 JLINK_ReadMemEx(0x08001034, 0x2 Bytes, Flags = 0x02000000)
T46B4 000:676.257    -- Read from C cache (2 bytes @ 0x08001034)
T46B4 000:676.264   Data:  FE E7
T46B4 000:676.272 - 0.021ms returns 2 (0x2)
T46B4 000:676.278 JLINK_ReadMemEx(0x08001036, 0x2 Bytes, Flags = 0x02000000)
T46B4 000:676.283    -- Read from C cache (2 bytes @ 0x08001036)
T46B4 000:676.291   Data:  FE E7
T46B4 000:676.299 - 0.021ms returns 2 (0x2)
T46B4 001:312.348 JLINK_HasError()
T46B4 001:312.373 JLINK_ReadReg(R0)
T46B4 001:312.828 - 0.454ms returns 0x00000000
T46B4 001:312.838 JLINK_ReadReg(R1)
T46B4 001:312.844 - 0.005ms returns 0x00000000
T46B4 001:312.851 JLINK_ReadReg(R2)
T46B4 001:312.856 - 0.005ms returns 0x00000000
T46B4 001:312.863 JLINK_ReadReg(R3)
T46B4 001:312.869 - 0.005ms returns 0x00000000
T46B4 001:312.875 JLINK_ReadReg(R4)
T46B4 001:312.880 - 0.005ms returns 0x00000000
T46B4 001:312.886 JLINK_ReadReg(R5)
T46B4 001:312.891 - 0.005ms returns 0x00000000
T46B4 001:312.897 JLINK_ReadReg(R6)
T46B4 001:312.902 - 0.005ms returns 0x00000000
T46B4 001:312.908 JLINK_ReadReg(R7)
T46B4 001:312.914 - 0.005ms returns 0x00000000
T46B4 001:312.928 JLINK_ReadReg(R8)
T46B4 001:312.934 - 0.014ms returns 0x00000000
T46B4 001:312.939 JLINK_ReadReg(R9)
T46B4 001:312.945 - 0.005ms returns 0x00000000
T46B4 001:312.951 JLINK_ReadReg(R10)
T46B4 001:312.956 - 0.005ms returns 0x00000000
T46B4 001:312.962 JLINK_ReadReg(R11)
T46B4 001:312.967 - 0.005ms returns 0x00000000
T46B4 001:312.973 JLINK_ReadReg(R12)
T46B4 001:312.979 - 0.005ms returns 0x00000000
T46B4 001:312.984 JLINK_ReadReg(R13 (SP))
T46B4 001:312.990 - 0.005ms returns 0x20000428
T46B4 001:312.996 JLINK_ReadReg(R14)
T46B4 001:313.001 - 0.005ms returns 0xFFFFFFFF
T46B4 001:313.007 JLINK_ReadReg(R15 (PC))
T46B4 001:313.013 - 0.005ms returns 0x08001028
T46B4 001:313.019 JLINK_ReadReg(XPSR)
T46B4 001:313.024 - 0.005ms returns 0x01000000
T46B4 001:313.030 JLINK_ReadReg(MSP)
T46B4 001:313.035 - 0.005ms returns 0x20000428
T46B4 001:313.041 JLINK_ReadReg(PSP)
T46B4 001:313.046 - 0.005ms returns 0x00000000
T46B4 001:313.052 JLINK_ReadReg(CFBP)
T46B4 001:313.058 - 0.005ms returns 0x00000000
T46B4 001:313.064 JLINK_ReadReg(FPSCR)
T46B4 001:317.196 - 4.130ms returns 0x00000000
T46B4 001:317.207 JLINK_ReadReg(FPS0)
T46B4 001:317.213 - 0.006ms returns 0x00000000
T46B4 001:317.219 JLINK_ReadReg(FPS1)
T46B4 001:317.225 - 0.005ms returns 0x00000000
T46B4 001:317.231 JLINK_ReadReg(FPS2)
T46B4 001:317.237 - 0.005ms returns 0x00000000
T46B4 001:317.243 JLINK_ReadReg(FPS3)
T46B4 001:317.249 - 0.005ms returns 0x00000000
T46B4 001:317.255 JLINK_ReadReg(FPS4)
T46B4 001:317.260 - 0.005ms returns 0x00000000
T46B4 001:317.267 JLINK_ReadReg(FPS5)
T46B4 001:317.272 - 0.005ms returns 0x00000000
T46B4 001:317.278 JLINK_ReadReg(FPS6)
T46B4 001:317.284 - 0.005ms returns 0x00000000
T46B4 001:317.290 JLINK_ReadReg(FPS7)
T46B4 001:317.296 - 0.005ms returns 0x00000000
T46B4 001:317.302 JLINK_ReadReg(FPS8)
T46B4 001:317.307 - 0.005ms returns 0x00000000
T46B4 001:317.313 JLINK_ReadReg(FPS9)
T46B4 001:317.319 - 0.005ms returns 0x00000000
T46B4 001:317.325 JLINK_ReadReg(FPS10)
T46B4 001:317.331 - 0.005ms returns 0x00000000
T46B4 001:317.337 JLINK_ReadReg(FPS11)
T46B4 001:317.345 - 0.008ms returns 0x00000000
T46B4 001:317.353 JLINK_ReadReg(FPS12)
T46B4 001:317.358 - 0.005ms returns 0x00000000
T46B4 001:317.365 JLINK_ReadReg(FPS13)
T46B4 001:317.370 - 0.005ms returns 0x00000000
T46B4 001:317.376 JLINK_ReadReg(FPS14)
T46B4 001:317.382 - 0.005ms returns 0x00000000
T46B4 001:317.388 JLINK_ReadReg(FPS15)
T46B4 001:317.394 - 0.005ms returns 0x00000000
T46B4 001:317.400 JLINK_ReadReg(FPS16)
T46B4 001:317.406 - 0.005ms returns 0x00000000
T46B4 001:317.412 JLINK_ReadReg(FPS17)
T46B4 001:317.417 - 0.005ms returns 0x00000000
T46B4 001:317.423 JLINK_ReadReg(FPS18)
T46B4 001:317.429 - 0.005ms returns 0x00000000
T46B4 001:317.435 JLINK_ReadReg(FPS19)
T46B4 001:317.441 - 0.005ms returns 0x00000000
T46B4 001:317.447 JLINK_ReadReg(FPS20)
T46B4 001:317.452 - 0.005ms returns 0x00000000
T46B4 001:317.458 JLINK_ReadReg(FPS21)
T46B4 001:317.464 - 0.005ms returns 0x00000000
T46B4 001:317.470 JLINK_ReadReg(FPS22)
T46B4 001:317.476 - 0.005ms returns 0x00000000
T46B4 001:317.482 JLINK_ReadReg(FPS23)
T46B4 001:317.487 - 0.005ms returns 0x00000000
T46B4 001:317.493 JLINK_ReadReg(FPS24)
T46B4 001:317.499 - 0.005ms returns 0x00000000
T46B4 001:317.505 JLINK_ReadReg(FPS25)
T46B4 001:317.510 - 0.005ms returns 0x00000000
T46B4 001:317.516 JLINK_ReadReg(FPS26)
T46B4 001:317.522 - 0.005ms returns 0x00000000
T46B4 001:317.528 JLINK_ReadReg(FPS27)
T46B4 001:317.534 - 0.005ms returns 0x00000000
T46B4 001:317.540 JLINK_ReadReg(FPS28)
T46B4 001:317.545 - 0.005ms returns 0x00000000
T46B4 001:317.551 JLINK_ReadReg(FPS29)
T46B4 001:317.557 - 0.005ms returns 0x00000000
T46B4 001:317.563 JLINK_ReadReg(FPS30)
T46B4 001:317.568 - 0.005ms returns 0x00000000
T46B4 001:317.574 JLINK_ReadReg(FPS31)
T46B4 001:317.580 - 0.005ms returns 0x00000000
T46B4 001:322.014 JLINK_WriteMemEx(0x20000000, 0x00001000 Bytes, Flags = 0x02000000)
T46B4 001:322.035   Data:  50 04 01 20 A1 14 00 20 C1 01 00 20 AB 14 00 20 ...
T46B4 001:322.053   CPU_WriteMem(4096 bytes @ 0x20000000)
T46B4 001:339.495 - 17.480ms returns 0x1000
T46B4 001:339.840 JLINK_WriteMemEx(0x20001000, 0x00001000 Bytes, Flags = 0x02000000)
T46B4 001:339.856   Data:  59 1C 8D F8 21 10 40 F2 0C 02 C2 F2 01 02 26 21 ...
T46B4 001:339.873   CPU_WriteMem(4096 bytes @ 0x20001000)
T46B4 001:357.288 - 17.447ms returns 0x1000
T46B4 001:357.675 JLINK_WriteMemEx(0x20002000, 0x00000A38 Bytes, Flags = 0x02000000)
T46B4 001:357.695   Data:  02 F0 43 EA E0 73 06 E0 41 FA 02 F3 D0 40 C2 F1 ...
T46B4 001:357.720   CPU_WriteMem(2616 bytes @ 0x20002000)
T46B4 001:369.451 - 11.774ms returns 0xA38
T46B4 001:421.116 JLINK_ReadMemEx(0x20000000, 0x4 Bytes, Flags = 0x02000000)
T46B4 001:421.147   CPU_ReadMem(64 bytes @ 0x20000000)
T46B4 001:421.999    -- Updating C cache (64 bytes @ 0x20000000)
T46B4 001:422.011    -- Read from C cache (4 bytes @ 0x20000000)
T46B4 001:422.020   Data:  50 04 01 20
T46B4 001:422.030 - 0.914ms returns 4 (0x4)
T46B4 001:422.090 JLINK_HasError()
T46B4 001:422.098 JLINK_WriteReg(R13 (SP), 0x20010450)
T46B4 001:422.106 - 0.008ms returns 0
T46B4 001:422.113 JLINK_HasError()
T46B4 001:422.120 JLINK_ReadReg(R0)
T46B4 001:422.126 - 0.006ms returns 0x00000000
T46B4 001:422.132 JLINK_ReadReg(R1)
T46B4 001:422.138 - 0.005ms returns 0x00000000
T46B4 001:422.144 JLINK_ReadReg(R2)
T46B4 001:422.150 - 0.005ms returns 0x00000000
T46B4 001:422.156 JLINK_ReadReg(R3)
T46B4 001:422.161 - 0.005ms returns 0x00000000
T46B4 001:422.167 JLINK_ReadReg(R4)
T46B4 001:422.173 - 0.005ms returns 0x00000000
T46B4 001:422.179 JLINK_ReadReg(R5)
T46B4 001:422.185 - 0.005ms returns 0x00000000
T46B4 001:422.191 JLINK_ReadReg(R6)
T46B4 001:422.196 - 0.005ms returns 0x00000000
T46B4 001:422.202 JLINK_ReadReg(R7)
T46B4 001:422.208 - 0.005ms returns 0x00000000
T46B4 001:422.214 JLINK_ReadReg(R8)
T46B4 001:422.220 - 0.005ms returns 0x00000000
T46B4 001:422.226 JLINK_ReadReg(R9)
T46B4 001:422.231 - 0.005ms returns 0x00000000
T46B4 001:422.237 JLINK_ReadReg(R10)
T46B4 001:422.243 - 0.005ms returns 0x00000000
T46B4 001:422.249 JLINK_ReadReg(R11)
T46B4 001:422.259 - 0.010ms returns 0x00000000
T46B4 001:422.265 JLINK_ReadReg(R12)
T46B4 001:422.271 - 0.005ms returns 0x00000000
T46B4 001:422.277 JLINK_ReadReg(R13 (SP))
T46B4 001:422.283 - 0.005ms returns 0x20010450
T46B4 001:422.289 JLINK_ReadReg(R14)
T46B4 001:422.294 - 0.005ms returns 0xFFFFFFFF
T46B4 001:422.301 JLINK_ReadReg(R15 (PC))
T46B4 001:422.306 - 0.005ms returns 0x08001028
T46B4 001:422.312 JLINK_ReadReg(XPSR)
T46B4 001:422.318 - 0.005ms returns 0x01000000
T46B4 001:422.324 JLINK_ReadReg(MSP)
T46B4 001:422.330 - 0.005ms returns 0x20010450
T46B4 001:422.336 JLINK_ReadReg(PSP)
T46B4 001:422.341 - 0.005ms returns 0x00000000
T46B4 001:422.347 JLINK_ReadReg(CFBP)
T46B4 001:422.353 - 0.005ms returns 0x00000000
T46B4 001:422.359 JLINK_ReadReg(FPSCR)
T46B4 001:422.365 - 0.005ms returns 0x00000000
T46B4 001:422.371 JLINK_ReadReg(FPS0)
T46B4 001:422.377 - 0.005ms returns 0x00000000
T46B4 001:422.383 JLINK_ReadReg(FPS1)
T46B4 001:422.388 - 0.005ms returns 0x00000000
T46B4 001:422.394 JLINK_ReadReg(FPS2)
T46B4 001:422.400 - 0.005ms returns 0x00000000
T46B4 001:422.406 JLINK_ReadReg(FPS3)
T46B4 001:422.412 - 0.005ms returns 0x00000000
T46B4 001:422.418 JLINK_ReadReg(FPS4)
T46B4 001:422.423 - 0.005ms returns 0x00000000
T46B4 001:422.429 JLINK_ReadReg(FPS5)
T46B4 001:422.435 - 0.005ms returns 0x00000000
T46B4 001:422.441 JLINK_ReadReg(FPS6)
T46B4 001:422.447 - 0.005ms returns 0x00000000
T46B4 001:422.453 JLINK_ReadReg(FPS7)
T46B4 001:422.458 - 0.005ms returns 0x00000000
T46B4 001:422.464 JLINK_ReadReg(FPS8)
T46B4 001:422.470 - 0.005ms returns 0x00000000
T46B4 001:422.476 JLINK_ReadReg(FPS9)
T46B4 001:422.481 - 0.005ms returns 0x00000000
T46B4 001:422.487 JLINK_ReadReg(FPS10)
T46B4 001:422.493 - 0.005ms returns 0x00000000
T46B4 001:422.499 JLINK_ReadReg(FPS11)
T46B4 001:422.505 - 0.005ms returns 0x00000000
T46B4 001:422.511 JLINK_ReadReg(FPS12)
T46B4 001:422.516 - 0.005ms returns 0x00000000
T46B4 001:422.522 JLINK_ReadReg(FPS13)
T46B4 001:422.528 - 0.005ms returns 0x00000000
T46B4 001:422.534 JLINK_ReadReg(FPS14)
T46B4 001:422.539 - 0.005ms returns 0x00000000
T46B4 001:422.545 JLINK_ReadReg(FPS15)
T46B4 001:422.551 - 0.005ms returns 0x00000000
T46B4 001:422.557 JLINK_ReadReg(FPS16)
T46B4 001:422.563 - 0.005ms returns 0x00000000
T46B4 001:422.569 JLINK_ReadReg(FPS17)
T46B4 001:422.574 - 0.005ms returns 0x00000000
T46B4 001:422.580 JLINK_ReadReg(FPS18)
T46B4 001:422.586 - 0.005ms returns 0x00000000
T46B4 001:422.592 JLINK_ReadReg(FPS19)
T46B4 001:422.597 - 0.005ms returns 0x00000000
T46B4 001:422.603 JLINK_ReadReg(FPS20)
T46B4 001:422.609 - 0.005ms returns 0x00000000
T46B4 001:422.615 JLINK_ReadReg(FPS21)
T46B4 001:422.620 - 0.005ms returns 0x00000000
T46B4 001:422.626 JLINK_ReadReg(FPS22)
T46B4 001:422.632 - 0.005ms returns 0x00000000
T46B4 001:422.638 JLINK_ReadReg(FPS23)
T46B4 001:422.643 - 0.005ms returns 0x00000000
T46B4 001:422.649 JLINK_ReadReg(FPS24)
T46B4 001:422.655 - 0.005ms returns 0x00000000
T46B4 001:422.661 JLINK_ReadReg(FPS25)
T46B4 001:422.667 - 0.005ms returns 0x00000000
T46B4 001:422.673 JLINK_ReadReg(FPS26)
T46B4 001:422.678 - 0.005ms returns 0x00000000
T46B4 001:422.684 JLINK_ReadReg(FPS27)
T46B4 001:422.690 - 0.005ms returns 0x00000000
T46B4 001:422.696 JLINK_ReadReg(FPS28)
T46B4 001:422.701 - 0.005ms returns 0x00000000
T46B4 001:422.707 JLINK_ReadReg(FPS29)
T46B4 001:422.713 - 0.005ms returns 0x00000000
T46B4 001:422.719 JLINK_ReadReg(FPS30)
T46B4 001:422.724 - 0.005ms returns 0x00000000
T46B4 001:422.730 JLINK_ReadReg(FPS31)
T46B4 001:422.736 - 0.005ms returns 0x00000000
T46B4 001:422.743 JLINK_ReadMemEx(0x20000004, 0x4 Bytes, Flags = 0x02000000)
T46B4 001:422.750    -- Read from C cache (4 bytes @ 0x20000004)
T46B4 001:422.758   Data:  A1 14 00 20
T46B4 001:422.767 - 0.023ms returns 4 (0x4)
T46B4 001:422.773 JLINK_HasError()
T46B4 001:422.779 JLINK_WriteReg(R15 (PC), 0x200014A0)
T46B4 001:422.785 - 0.005ms returns 0
T46B4 001:422.792 JLINK_HasError()
T46B4 001:422.798 JLINK_ReadReg(R0)
T46B4 001:422.837 - 0.039ms returns 0x00000000
T46B4 001:422.844 JLINK_ReadReg(R1)
T46B4 001:422.850 - 0.005ms returns 0x00000000
T46B4 001:422.856 JLINK_ReadReg(R2)
T46B4 001:422.862 - 0.005ms returns 0x00000000
T46B4 001:422.868 JLINK_ReadReg(R3)
T46B4 001:422.873 - 0.005ms returns 0x00000000
T46B4 001:422.879 JLINK_ReadReg(R4)
T46B4 001:422.885 - 0.005ms returns 0x00000000
T46B4 001:422.891 JLINK_ReadReg(R5)
T46B4 001:422.896 - 0.005ms returns 0x00000000
T46B4 001:422.902 JLINK_ReadReg(R6)
T46B4 001:422.908 - 0.005ms returns 0x00000000
T46B4 001:422.914 JLINK_ReadReg(R7)
T46B4 001:422.919 - 0.005ms returns 0x00000000
T46B4 001:422.925 JLINK_ReadReg(R8)
T46B4 001:422.931 - 0.005ms returns 0x00000000
T46B4 001:422.937 JLINK_ReadReg(R9)
T46B4 001:422.942 - 0.005ms returns 0x00000000
T46B4 001:422.948 JLINK_ReadReg(R10)
T46B4 001:422.954 - 0.005ms returns 0x00000000
T46B4 001:422.960 JLINK_ReadReg(R11)
T46B4 001:422.966 - 0.005ms returns 0x00000000
T46B4 001:422.972 JLINK_ReadReg(R12)
T46B4 001:422.977 - 0.005ms returns 0x00000000
T46B4 001:422.983 JLINK_ReadReg(R13 (SP))
T46B4 001:422.989 - 0.005ms returns 0x20010450
T46B4 001:422.995 JLINK_ReadReg(R14)
T46B4 001:423.000 - 0.005ms returns 0xFFFFFFFF
T46B4 001:423.006 JLINK_ReadReg(R15 (PC))
T46B4 001:423.012 - 0.005ms returns 0x200014A0
T46B4 001:423.018 JLINK_ReadReg(XPSR)
T46B4 001:423.024 - 0.005ms returns 0x01000000
T46B4 001:423.030 JLINK_ReadReg(MSP)
T46B4 001:423.035 - 0.005ms returns 0x20010450
T46B4 001:423.041 JLINK_ReadReg(PSP)
T46B4 001:423.047 - 0.005ms returns 0x00000000
T46B4 001:423.053 JLINK_ReadReg(CFBP)
T46B4 001:423.059 - 0.005ms returns 0x00000000
T46B4 001:423.065 JLINK_ReadReg(FPSCR)
T46B4 001:423.070 - 0.005ms returns 0x00000000
T46B4 001:423.076 JLINK_ReadReg(FPS0)
T46B4 001:423.082 - 0.005ms returns 0x00000000
T46B4 001:423.088 JLINK_ReadReg(FPS1)
T46B4 001:423.093 - 0.005ms returns 0x00000000
T46B4 001:423.099 JLINK_ReadReg(FPS2)
T46B4 001:423.105 - 0.005ms returns 0x00000000
T46B4 001:423.111 JLINK_ReadReg(FPS3)
T46B4 001:423.117 - 0.005ms returns 0x00000000
T46B4 001:423.123 JLINK_ReadReg(FPS4)
T46B4 001:423.128 - 0.005ms returns 0x00000000
T46B4 001:423.134 JLINK_ReadReg(FPS5)
T46B4 001:423.140 - 0.005ms returns 0x00000000
T46B4 001:423.146 JLINK_ReadReg(FPS6)
T46B4 001:423.151 - 0.005ms returns 0x00000000
T46B4 001:423.157 JLINK_ReadReg(FPS7)
T46B4 001:423.163 - 0.005ms returns 0x00000000
T46B4 001:423.169 JLINK_ReadReg(FPS8)
T46B4 001:423.175 - 0.005ms returns 0x00000000
T46B4 001:423.180 JLINK_ReadReg(FPS9)
T46B4 001:423.186 - 0.005ms returns 0x00000000
T46B4 001:423.192 JLINK_ReadReg(FPS10)
T46B4 001:423.198 - 0.005ms returns 0x00000000
T46B4 001:423.204 JLINK_ReadReg(FPS11)
T46B4 001:423.209 - 0.005ms returns 0x00000000
T46B4 001:423.215 JLINK_ReadReg(FPS12)
T46B4 001:423.221 - 0.005ms returns 0x00000000
T46B4 001:423.227 JLINK_ReadReg(FPS13)
T46B4 001:423.232 - 0.005ms returns 0x00000000
T46B4 001:423.238 JLINK_ReadReg(FPS14)
T46B4 001:423.244 - 0.005ms returns 0x00000000
T46B4 001:423.250 JLINK_ReadReg(FPS15)
T46B4 001:423.256 - 0.005ms returns 0x00000000
T46B4 001:423.262 JLINK_ReadReg(FPS16)
T46B4 001:423.267 - 0.005ms returns 0x00000000
T46B4 001:423.273 JLINK_ReadReg(FPS17)
T46B4 001:423.279 - 0.005ms returns 0x00000000
T46B4 001:423.285 JLINK_ReadReg(FPS18)
T46B4 001:423.290 - 0.005ms returns 0x00000000
T46B4 001:423.296 JLINK_ReadReg(FPS19)
T46B4 001:423.302 - 0.005ms returns 0x00000000
T46B4 001:423.308 JLINK_ReadReg(FPS20)
T46B4 001:423.313 - 0.005ms returns 0x00000000
T46B4 001:423.319 JLINK_ReadReg(FPS21)
T46B4 001:423.325 - 0.005ms returns 0x00000000
T46B4 001:423.331 JLINK_ReadReg(FPS22)
T46B4 001:423.336 - 0.005ms returns 0x00000000
T46B4 001:423.342 JLINK_ReadReg(FPS23)
T46B4 001:423.348 - 0.005ms returns 0x00000000
T46B4 001:423.354 JLINK_ReadReg(FPS24)
T46B4 001:423.359 - 0.005ms returns 0x00000000
T46B4 001:423.365 JLINK_ReadReg(FPS25)
T46B4 001:423.371 - 0.005ms returns 0x00000000
T46B4 001:423.377 JLINK_ReadReg(FPS26)
T46B4 001:423.383 - 0.006ms returns 0x00000000
T46B4 001:423.390 JLINK_ReadReg(FPS27)
T46B4 001:423.395 - 0.005ms returns 0x00000000
T46B4 001:423.401 JLINK_ReadReg(FPS28)
T46B4 001:423.407 - 0.005ms returns 0x00000000
T46B4 001:423.413 JLINK_ReadReg(FPS29)
T46B4 001:423.418 - 0.005ms returns 0x00000000
T46B4 001:423.424 JLINK_ReadReg(FPS30)
T46B4 001:423.430 - 0.005ms returns 0x00000000
T46B4 001:423.436 JLINK_ReadReg(FPS31)
T46B4 001:423.441 - 0.005ms returns 0x00000000
T46B4 001:423.449 JLINK_WriteMemEx(0xE000ED08, 0x00000004 Bytes, Flags = 0x02000000)
T46B4 001:423.454   Data:  00 00 00 20
T46B4 001:423.466   CPU_WriteMem(4 bytes @ 0xE000ED08)
T46B4 001:423.840 - 0.391ms returns 0x4
T46B4 001:425.870 JLINK_ReadMemEx(0xE000ED28, 0x4 Bytes, Flags = 0x02000000)
T46B4 001:425.887   CPU_ReadMem(4 bytes @ 0xE000ED28)
T46B4 001:426.315   Data:  00 00 00 00
T46B4 001:426.347 - 0.476ms returns 4 (0x4)
T46B4 001:428.008 JLINK_HasError()
T46B4 001:428.028 JLINK_ReadMemU32(0xE0001004, 0x1 Items)
T46B4 001:428.038   Data:  00 00 00 00
T46B4 001:428.047   Debug reg: DWT_CYCCNT
T46B4 001:428.055 - 0.027ms returns 1 (0x1)
T46B4 001:429.620 JLINK_ReadMemEx(0x200013A0, 0x3C Bytes, Flags = 0x02000000)
T46B4 001:429.644   CPU_ReadMem(128 bytes @ 0x20001380)
T46B4 001:430.974    -- Updating C cache (128 bytes @ 0x20001380)
T46B4 001:430.994    -- Read from C cache (60 bytes @ 0x200013A0)
T46B4 001:431.005   Data:  40 F2 36 01 C2 F2 01 01 08 70 9D F8 0F 00 C0 F3 ...
T46B4 001:431.015 - 1.395ms returns 60 (0x3C)
T46B4 001:431.025 JLINK_ReadMemEx(0x200013A0, 0x2 Bytes, Flags = 0x02000000)
T46B4 001:431.034    -- Read from C cache (2 bytes @ 0x200013A0)
T46B4 001:431.045   Data:  40 F2
T46B4 001:431.055 - 0.030ms returns 2 (0x2)
T46B4 001:431.064 JLINK_ReadMemEx(0x200013A2, 0x2 Bytes, Flags = 0x02000000)
T46B4 001:431.072    -- Read from C cache (2 bytes @ 0x200013A2)
T46B4 001:431.082   Data:  36 01
T46B4 001:431.092 - 0.028ms returns 2 (0x2)
T46B4 001:431.101 JLINK_ReadMemEx(0x200013A4, 0x3C Bytes, Flags = 0x02000000)
T46B4 001:431.109    -- Read from C cache (60 bytes @ 0x200013A4)
T46B4 001:431.119   Data:  C2 F2 01 01 08 70 9D F8 0F 00 C0 F3 80 00 40 F2 ...
T46B4 001:431.129 - 0.028ms returns 60 (0x3C)
T46B4 001:431.137 JLINK_ReadMemEx(0x200013A4, 0x2 Bytes, Flags = 0x02000000)
T46B4 001:431.144    -- Read from C cache (2 bytes @ 0x200013A4)
T46B4 001:431.154   Data:  C2 F2
T46B4 001:431.164 - 0.027ms returns 2 (0x2)
T46B4 001:431.172 JLINK_ReadMemEx(0x200013A6, 0x2 Bytes, Flags = 0x02000000)
T46B4 001:431.179    -- Read from C cache (2 bytes @ 0x200013A6)
T46B4 001:431.189   Data:  01 01
T46B4 001:431.200 - 0.027ms returns 2 (0x2)
T46B4 001:431.208 JLINK_ReadMemEx(0x200013A8, 0x3C Bytes, Flags = 0x02000000)
T46B4 001:431.215    -- Read from C cache (60 bytes @ 0x200013A8)
T46B4 001:431.225   Data:  08 70 9D F8 0F 00 C0 F3 80 00 40 F2 37 01 C2 F2 ...
T46B4 001:431.235 - 0.028ms returns 60 (0x3C)
T46B4 001:431.243 JLINK_ReadMemEx(0x200013A8, 0x2 Bytes, Flags = 0x02000000)
T46B4 001:431.250    -- Read from C cache (2 bytes @ 0x200013A8)
T46B4 001:431.260   Data:  08 70
T46B4 001:431.270 - 0.027ms returns 2 (0x2)
T46B4 001:431.278 JLINK_ReadMemEx(0x200013AA, 0x2 Bytes, Flags = 0x02000000)
T46B4 001:431.285    -- Read from C cache (2 bytes @ 0x200013AA)
T46B4 001:431.295   Data:  9D F8
T46B4 001:431.305 - 0.027ms returns 2 (0x2)
T46B4 001:431.314 JLINK_ReadMemEx(0x200013AA, 0x2 Bytes, Flags = 0x02000000)
T46B4 001:431.321    -- Read from C cache (2 bytes @ 0x200013AA)
T46B4 001:431.331   Data:  9D F8
T46B4 001:431.341 - 0.027ms returns 2 (0x2)
T46B4 001:431.349 JLINK_ReadMemEx(0x200013AC, 0x3C Bytes, Flags = 0x02000000)
T46B4 001:431.356    -- Read from C cache (60 bytes @ 0x200013AC)
T46B4 001:431.366   Data:  0F 00 C0 F3 80 00 40 F2 37 01 C2 F2 01 01 08 70 ...
T46B4 001:431.376 - 0.027ms returns 60 (0x3C)
T46B4 001:431.384 JLINK_ReadMemEx(0x200013AC, 0x2 Bytes, Flags = 0x02000000)
T46B4 001:431.391    -- Read from C cache (2 bytes @ 0x200013AC)
T46B4 001:431.401   Data:  0F 00
T46B4 001:431.417 - 0.033ms returns 2 (0x2)
T46B4 001:431.425 JLINK_ReadMemEx(0x200013AE, 0x2 Bytes, Flags = 0x02000000)
T46B4 001:431.432    -- Read from C cache (2 bytes @ 0x200013AE)
T46B4 001:431.442   Data:  C0 F3
T46B4 001:431.454 - 0.028ms returns 2 (0x2)
T46B4 001:431.461 JLINK_ReadMemEx(0x200013B0, 0x3C Bytes, Flags = 0x02000000)
T46B4 001:431.468    -- Read from C cache (60 bytes @ 0x200013B0)
T46B4 001:431.478   Data:  80 00 40 F2 37 01 C2 F2 01 01 08 70 40 F2 38 01 ...
T46B4 001:431.488 - 0.027ms returns 60 (0x3C)
T46B4 001:431.496 JLINK_ReadMemEx(0x200013B0, 0x2 Bytes, Flags = 0x02000000)
T46B4 001:431.503    -- Read from C cache (2 bytes @ 0x200013B0)
T46B4 001:431.513   Data:  80 00
T46B4 001:431.523 - 0.026ms returns 2 (0x2)
T46B4 001:431.530 JLINK_ReadMemEx(0x200013B2, 0x2 Bytes, Flags = 0x02000000)
T46B4 001:431.538    -- Read from C cache (2 bytes @ 0x200013B2)
T46B4 001:431.547   Data:  40 F2
T46B4 001:431.557 - 0.026ms returns 2 (0x2)
T46B4 001:431.565 JLINK_ReadMemEx(0x200013B4, 0x3C Bytes, Flags = 0x02000000)
T46B4 001:431.572    -- Read from C cache (60 bytes @ 0x200013B4)
T46B4 001:431.582   Data:  37 01 C2 F2 01 01 08 70 40 F2 38 01 C2 F2 01 01 ...
T46B4 001:431.592 - 0.027ms returns 60 (0x3C)
T46B4 001:431.599 JLINK_ReadMemEx(0x200013B4, 0x2 Bytes, Flags = 0x02000000)
T46B4 001:431.606    -- Read from C cache (2 bytes @ 0x200013B4)
T46B4 001:431.616   Data:  37 01
T46B4 001:431.626 - 0.027ms returns 2 (0x2)
T46B4 001:431.634 JLINK_ReadMemEx(0x200013B6, 0x2 Bytes, Flags = 0x02000000)
T46B4 001:431.641    -- Read from C cache (2 bytes @ 0x200013B6)
T46B4 001:431.651   Data:  C2 F2
T46B4 001:431.661 - 0.026ms returns 2 (0x2)
T46B4 001:431.668 JLINK_ReadMemEx(0x200013B8, 0x3C Bytes, Flags = 0x02000000)
T46B4 001:431.675    -- Read from C cache (60 bytes @ 0x200013B8)
T46B4 001:431.685   Data:  01 01 08 70 40 F2 38 01 C2 F2 01 01 02 20 08 70 ...
T46B4 001:431.695 - 0.027ms returns 60 (0x3C)
T46B4 001:431.702 JLINK_ReadMemEx(0x200013B8, 0x2 Bytes, Flags = 0x02000000)
T46B4 001:431.709    -- Read from C cache (2 bytes @ 0x200013B8)
T46B4 001:431.719   Data:  01 01
T46B4 001:431.729 - 0.026ms returns 2 (0x2)
T46B4 001:431.736 JLINK_ReadMemEx(0x200013BA, 0x2 Bytes, Flags = 0x02000000)
T46B4 001:431.744    -- Read from C cache (2 bytes @ 0x200013BA)
T46B4 001:431.753   Data:  08 70
T46B4 001:431.763 - 0.026ms returns 2 (0x2)
T46B4 001:431.771 JLINK_ReadMemEx(0x200013BC, 0x3C Bytes, Flags = 0x02000000)
T46B4 001:431.778    -- Read from C cache (60 bytes @ 0x200013BC)
T46B4 001:431.788   Data:  40 F2 38 01 C2 F2 01 01 02 20 08 70 06 E0 40 F2 ...
T46B4 001:431.798 - 0.027ms returns 60 (0x3C)
T46B4 001:431.805 JLINK_ReadMemEx(0x200013BC, 0x2 Bytes, Flags = 0x02000000)
T46B4 001:431.813    -- Read from C cache (2 bytes @ 0x200013BC)
T46B4 001:431.822   Data:  40 F2
T46B4 001:431.831 - 0.026ms returns 2 (0x2)
T46B4 001:431.838 JLINK_ReadMemEx(0x200013BC, 0x3C Bytes, Flags = 0x02000000)
T46B4 001:431.845    -- Read from C cache (60 bytes @ 0x200013BC)
T46B4 001:431.854   Data:  40 F2 38 01 C2 F2 01 01 02 20 08 70 06 E0 40 F2 ...
T46B4 001:431.863 - 0.025ms returns 60 (0x3C)
T46B4 001:431.870 JLINK_ReadMemEx(0x200013BC, 0x2 Bytes, Flags = 0x02000000)
T46B4 001:431.877    -- Read from C cache (2 bytes @ 0x200013BC)
T46B4 001:431.886   Data:  40 F2
T46B4 001:431.895 - 0.025ms returns 2 (0x2)
T46B4 001:431.902 JLINK_ReadMemEx(0x200013BE, 0x2 Bytes, Flags = 0x02000000)
T46B4 001:431.909    -- Read from C cache (2 bytes @ 0x200013BE)
T46B4 001:431.918   Data:  38 01
T46B4 001:431.927 - 0.024ms returns 2 (0x2)
T46B4 001:431.934 JLINK_ReadMemEx(0x200013C0, 0x3C Bytes, Flags = 0x02000000)
T46B4 001:431.941    -- Read from C cache (60 bytes @ 0x200013C0)
T46B4 001:431.950   Data:  C2 F2 01 01 02 20 08 70 06 E0 40 F2 38 01 C2 F2 ...
T46B4 001:431.959 - 0.025ms returns 60 (0x3C)
T46B4 001:431.966 JLINK_ReadMemEx(0x200013C0, 0x2 Bytes, Flags = 0x02000000)
T46B4 001:431.973    -- Read from C cache (2 bytes @ 0x200013C0)
T46B4 001:431.982   Data:  C2 F2
T46B4 001:431.992 - 0.026ms returns 2 (0x2)
T46B4 001:431.999 JLINK_ReadMemEx(0x200013C2, 0x2 Bytes, Flags = 0x02000000)
T46B4 001:432.006    -- Read from C cache (2 bytes @ 0x200013C2)
T46B4 001:432.015   Data:  01 01
T46B4 001:432.024 - 0.025ms returns 2 (0x2)
T46B4 001:432.031 JLINK_ReadMemEx(0x200013C4, 0x3C Bytes, Flags = 0x02000000)
T46B4 001:432.038    -- Read from C cache (60 bytes @ 0x200013C4)
T46B4 001:432.047   Data:  02 20 08 70 06 E0 40 F2 38 01 C2 F2 01 01 00 20 ...
T46B4 001:432.056 - 0.025ms returns 60 (0x3C)
T46B4 001:432.063 JLINK_ReadMemEx(0x200013C4, 0x2 Bytes, Flags = 0x02000000)
T46B4 001:432.070    -- Read from C cache (2 bytes @ 0x200013C4)
T46B4 001:432.079   Data:  02 20
T46B4 001:432.088 - 0.025ms returns 2 (0x2)
T46B4 001:432.095 JLINK_ReadMemEx(0x200013C6, 0x2 Bytes, Flags = 0x02000000)
T46B4 001:432.102    -- Read from C cache (2 bytes @ 0x200013C6)
T46B4 001:432.111   Data:  08 70
T46B4 001:432.120 - 0.024ms returns 2 (0x2)
T46B4 001:432.127 JLINK_ReadMemEx(0x200013C6, 0x2 Bytes, Flags = 0x02000000)
T46B4 001:432.134    -- Read from C cache (2 bytes @ 0x200013C6)
T46B4 001:432.143   Data:  08 70
T46B4 001:432.152 - 0.024ms returns 2 (0x2)
T46B4 001:432.159 JLINK_ReadMemEx(0x200013C8, 0x3C Bytes, Flags = 0x02000000)
T46B4 001:432.167   CPU_ReadMem(64 bytes @ 0x20001400)
T46B4 001:432.993    -- Updating C cache (64 bytes @ 0x20001400)
T46B4 001:433.004    -- Read from C cache (60 bytes @ 0x200013C8)
T46B4 001:433.013   Data:  06 E0 40 F2 38 01 C2 F2 01 01 00 20 08 70 FF E7 ...
T46B4 001:433.022 - 0.863ms returns 60 (0x3C)
T46B4 001:433.030 JLINK_ReadMemEx(0x200013C8, 0x2 Bytes, Flags = 0x02000000)
T46B4 001:433.037    -- Read from C cache (2 bytes @ 0x200013C8)
T46B4 001:433.046   Data:  06 E0
T46B4 001:433.055 - 0.025ms returns 2 (0x2)
T46B4 001:433.062 JLINK_ReadMemEx(0x200013C8, 0x3C Bytes, Flags = 0x02000000)
T46B4 001:433.069    -- Read from C cache (60 bytes @ 0x200013C8)
T46B4 001:433.078   Data:  06 E0 40 F2 38 01 C2 F2 01 01 00 20 08 70 FF E7 ...
T46B4 001:433.087 - 0.024ms returns 60 (0x3C)
T46B4 001:433.094 JLINK_ReadMemEx(0x200013C8, 0x2 Bytes, Flags = 0x02000000)
T46B4 001:433.100    -- Read from C cache (2 bytes @ 0x200013C8)
T46B4 001:433.109   Data:  06 E0
T46B4 001:433.117 - 0.023ms returns 2 (0x2)
T46B4 001:433.124 JLINK_ReadMemEx(0x200013CA, 0x2 Bytes, Flags = 0x02000000)
T46B4 001:433.131    -- Read from C cache (2 bytes @ 0x200013CA)
T46B4 001:433.140   Data:  40 F2
T46B4 001:433.150 - 0.025ms returns 2 (0x2)
T46B4 001:433.157 JLINK_ReadMemEx(0x200013CA, 0x2 Bytes, Flags = 0x02000000)
T46B4 001:433.164    -- Read from C cache (2 bytes @ 0x200013CA)
T46B4 001:433.174   Data:  40 F2
T46B4 001:433.184 - 0.027ms returns 2 (0x2)
T46B4 001:433.191 JLINK_ReadMemEx(0x200013CC, 0x3C Bytes, Flags = 0x02000000)
T46B4 001:433.198    -- Read from C cache (60 bytes @ 0x200013CC)
T46B4 001:433.208   Data:  38 01 C2 F2 01 01 00 20 08 70 FF E7 59 E0 9D F9 ...
T46B4 001:433.217 - 0.026ms returns 60 (0x3C)
T46B4 001:433.225 JLINK_ReadMemEx(0x200013CC, 0x2 Bytes, Flags = 0x02000000)
T46B4 001:433.232    -- Read from C cache (2 bytes @ 0x200013CC)
T46B4 001:433.241   Data:  38 01
T46B4 001:433.251 - 0.026ms returns 2 (0x2)
T46B4 001:433.258 JLINK_ReadMemEx(0x200013CE, 0x2 Bytes, Flags = 0x02000000)
T46B4 001:433.265    -- Read from C cache (2 bytes @ 0x200013CE)
T46B4 001:433.275   Data:  C2 F2
T46B4 001:433.284 - 0.026ms returns 2 (0x2)
T46B4 001:433.292 JLINK_ReadMemEx(0x200013D0, 0x3C Bytes, Flags = 0x02000000)
T46B4 001:433.299    -- Read from C cache (60 bytes @ 0x200013D0)
T46B4 001:433.308   Data:  01 01 00 20 08 70 FF E7 59 E0 9D F9 0F 00 0D 28 ...
T46B4 001:433.317 - 0.025ms returns 60 (0x3C)
T46B4 001:433.323 JLINK_ReadMemEx(0x200013D0, 0x2 Bytes, Flags = 0x02000000)
T46B4 001:433.329    -- Read from C cache (2 bytes @ 0x200013D0)
T46B4 001:433.337   Data:  01 01
T46B4 001:433.346 - 0.022ms returns 2 (0x2)
T46B4 001:433.352 JLINK_ReadMemEx(0x200013D2, 0x2 Bytes, Flags = 0x02000000)
T46B4 001:433.358    -- Read from C cache (2 bytes @ 0x200013D2)
T46B4 001:433.368   Data:  00 20
T46B4 001:433.377 - 0.024ms returns 2 (0x2)
T46B4 001:433.383 JLINK_ReadMemEx(0x200013D4, 0x3C Bytes, Flags = 0x02000000)
T46B4 001:433.390    -- Read from C cache (60 bytes @ 0x200013D4)
T46B4 001:433.398   Data:  08 70 FF E7 59 E0 9D F9 0F 00 0D 28 05 D0 FF E7 ...
T46B4 001:433.406 - 0.023ms returns 60 (0x3C)
T46B4 001:433.413 JLINK_ReadMemEx(0x200013D4, 0x2 Bytes, Flags = 0x02000000)
T46B4 001:433.419    -- Read from C cache (2 bytes @ 0x200013D4)
T46B4 001:433.427   Data:  08 70
T46B4 001:433.435 - 0.023ms returns 2 (0x2)
T46B4 001:433.442 JLINK_ReadMemEx(0x200013D4, 0x3C Bytes, Flags = 0x02000000)
T46B4 001:433.448    -- Read from C cache (60 bytes @ 0x200013D4)
T46B4 001:433.457   Data:  08 70 FF E7 59 E0 9D F9 0F 00 0D 28 05 D0 FF E7 ...
T46B4 001:433.465 - 0.023ms returns 60 (0x3C)
T46B4 001:433.471 JLINK_ReadMemEx(0x200013D4, 0x2 Bytes, Flags = 0x02000000)
T46B4 001:433.478    -- Read from C cache (2 bytes @ 0x200013D4)
T46B4 001:433.486   Data:  08 70
T46B4 001:433.494 - 0.023ms returns 2 (0x2)
T46B4 001:433.501 JLINK_ReadMemEx(0x200013D6, 0x2 Bytes, Flags = 0x02000000)
T46B4 001:433.507    -- Read from C cache (2 bytes @ 0x200013D6)
T46B4 001:433.515   Data:  FF E7
T46B4 001:433.524 - 0.022ms returns 2 (0x2)
T46B4 001:433.530 JLINK_ReadMemEx(0x200013D6, 0x2 Bytes, Flags = 0x02000000)
T46B4 001:433.536    -- Read from C cache (2 bytes @ 0x200013D6)
T46B4 001:433.544   Data:  FF E7
T46B4 001:433.553 - 0.022ms returns 2 (0x2)
T46B4 001:433.559 JLINK_ReadMemEx(0x200013D8, 0x3C Bytes, Flags = 0x02000000)
T46B4 001:433.565    -- Read from C cache (60 bytes @ 0x200013D8)
T46B4 001:433.574   Data:  59 E0 9D F9 0F 00 0D 28 05 D0 FF E7 9D F9 0F 00 ...
